!Mini-Circuits Lab;
!S-parameters;
!Model: BDCA-15-25+;  Unit1;
!Run: W55730; Lot: N/A; Date Code: N/A;
!Fixture: 90-1-20-113, S/N: 62007, Due: 06/16/2012;
!Connection: Port1 to Pin1, Port2 to Pin6, Port3 to Pin10, Port4 to Pin5, Pins 2,3,4,7,8,9 - grounded;
!Tested with PNA-L Network Analyzer N5230A, S/N: 67766, Cal.Due: 09/22/2012.
# MHZ S DB R 50
!Frequency        S11 dB  S11 DEG   S12 dB  S12 DEG   S13 dB  S13 DEG   S14 dB  S14 DEG
!                 S21 dB  S21 DEG   S22 dB  S22 DEG   S23 dB  S23 DEG   S24 dB  S24 DEG
!                 S31 dB  S31 DEG   S32 dB  S32 DEG   S33 dB  S33 DEG   S34 dB  S34 DEG
!                 S41 dB  S41 DEG   S42 dB  S42 DEG   S43 dB  S43 DEG   S44 dB  S44 DEG
  10.0000     -4.856409E+001  4.936880E+001 -7.987524E-002 -6.778447E-001 -5.303788E+001  8.469698E+001 -7.029391E+001 -1.210350E+002
              -8.161526E-002 -6.773767E-001 -4.985532E+001  7.563282E+001 -7.021822E+001 -1.231406E+002 -5.309373E+001  8.480481E+001
              -5.308131E+001  8.532850E+001 -7.030882E+001 -1.276853E+002 -4.953582E+001  3.754325E+001 -8.142412E-002 -7.197124E-001
              -7.029590E+001 -1.237775E+002 -5.315827E+001  8.481204E+001 -9.720495E-002 -7.001365E-001 -4.882220E+001  4.802166E+001
  12.0000     -4.889734E+001  4.328459E+001 -8.325371E-002 -8.259681E-001 -5.165353E+001  8.450666E+001 -6.910548E+001 -1.282339E+002
              -8.502708E-002 -8.175564E-001 -5.049995E+001  6.636639E+001 -6.914288E+001 -1.289516E+002 -5.165059E+001  8.445641E+001
              -5.165070E+001  8.449485E+001 -6.903133E+001 -1.290425E+002 -4.909513E+001  3.442622E+001 -8.754187E-002 -8.611395E-001
              -6.919882E+001 -1.295665E+002 -5.167401E+001  8.449697E+001 -9.840322E-002 -8.436063E-001 -4.853504E+001  4.675497E+001
  14.0000     -4.831295E+001  3.779322E+001 -8.252148E-002 -9.587434E-001 -5.040232E+001  8.430880E+001 -6.829449E+001 -1.337244E+002
              -8.508502E-002 -9.526713E-001 -5.018283E+001  5.013281E+001 -6.839577E+001 -1.319247E+002 -5.040380E+001  8.428732E+001
              -5.038584E+001  8.424171E+001 -6.841117E+001 -1.317746E+002 -4.810197E+001  3.134460E+001 -8.628890E-002 -1.003153E+000
              -6.823693E+001 -1.326239E+002 -5.043274E+001  8.420754E+001 -9.700175E-002 -9.832138E-001 -4.776764E+001  4.330909E+001
  16.0000     -4.752276E+001  4.003752E+001 -8.362443E-002 -1.083572E+000 -4.931421E+001  8.403374E+001 -6.772440E+001 -1.360957E+002
              -8.652972E-002 -1.083205E+000 -4.936196E+001  4.741157E+001 -6.786656E+001 -1.356316E+002 -4.931050E+001  8.406077E+001
              -4.934085E+001  8.380215E+001 -6.771652E+001 -1.359687E+002 -4.736414E+001  3.524990E+001 -8.608661E-002 -1.138580E+000
              -6.785921E+001 -1.354861E+002 -4.936703E+001  8.402913E+001 -9.853104E-002 -1.113051E+000 -4.687321E+001  4.453096E+001
  18.0000     -4.628087E+001  4.274197E+001 -8.485285E-002 -1.213236E+000 -4.838947E+001  8.384578E+001 -6.724103E+001 -1.404949E+002
              -8.775470E-002 -1.213008E+000 -4.804034E+001  4.887309E+001 -6.730592E+001 -1.383679E+002 -4.837924E+001  8.392159E+001
              -4.837451E+001  8.384659E+001 -6.740260E+001 -1.395574E+002 -4.618174E+001  3.931912E+001 -8.757257E-002 -1.264108E+000
              -6.726286E+001 -1.394621E+002 -4.842052E+001  8.379396E+001 -1.000620E-001 -1.247891E+000 -4.574616E+001  4.532938E+001
  20.0000     -4.515506E+001  4.436822E+001 -8.637131E-002 -1.333885E+000 -4.754195E+001  8.380132E+001 -6.672845E+001 -1.416411E+002
              -8.845817E-002 -1.342244E+000 -4.698111E+001  5.236424E+001 -6.670588E+001 -1.414710E+002 -4.753356E+001  8.383519E+001
              -4.755011E+001  8.382800E+001 -6.680696E+001 -1.416366E+002 -4.506720E+001  4.227857E+001 -8.908752E-002 -1.388873E+000
              -6.670029E+001 -1.416573E+002 -4.758217E+001  8.379243E+001 -1.018008E-001 -1.383050E+000 -4.469550E+001  4.507717E+001
  22.0000     -4.422622E+001  4.473772E+001 -8.800811E-002 -1.460228E+000 -4.678369E+001  8.371989E+001 -6.644260E+001 -1.463124E+002
              -8.984152E-002 -1.475835E+000 -4.597206E+001  5.414808E+001 -6.641245E+001 -1.453674E+002 -4.676807E+001  8.364575E+001
              -4.677892E+001  8.371203E+001 -6.642056E+001 -1.450152E+002 -4.406206E+001  4.376380E+001 -9.124023E-002 -1.514225E+000
              -6.642356E+001 -1.447598E+002 -4.681111E+001  8.381609E+001 -1.027005E-001 -1.518976E+000 -4.387936E+001  4.496448E+001
  24.0000     -4.379210E+001  4.454662E+001 -8.929276E-002 -1.587088E+000 -4.607737E+001  8.370131E+001 -6.611951E+001 -1.478549E+002
              -9.077337E-002 -1.597111E+000 -4.527307E+001  5.299091E+001 -6.609229E+001 -1.471907E+002 -4.606466E+001  8.372358E+001
              -4.607703E+001  8.371024E+001 -6.615530E+001 -1.474081E+002 -4.354936E+001  4.501009E+001 -9.259984E-002 -1.643919E+000
              -6.616404E+001 -1.481690E+002 -4.610936E+001  8.362012E+001 -1.040620E-001 -1.650241E+000 -4.345270E+001  4.503313E+001
  26.0000     -4.364313E+001  4.447385E+001 -9.000307E-002 -1.711372E+000 -4.542871E+001  8.372583E+001 -6.577061E+001 -1.499783E+002
              -9.124564E-002 -1.720923E+000 -4.484590E+001  5.161007E+001 -6.576391E+001 -1.495864E+002 -4.543788E+001  8.368736E+001
              -4.543554E+001  8.370012E+001 -6.583046E+001 -1.503524E+002 -4.324936E+001  4.602226E+001 -9.341859E-002 -1.773024E+000
              -6.574734E+001 -1.493714E+002 -4.547582E+001  8.368237E+001 -1.042150E-001 -1.776918E+000 -4.329424E+001  4.568584E+001
  28.0000     -4.356188E+001  4.386731E+001 -9.114169E-002 -1.839848E+000 -4.482647E+001  8.375721E+001 -6.546804E+001 -1.511740E+002
              -9.167063E-002 -1.842055E+000 -4.453122E+001  4.927376E+001 -6.545509E+001 -1.509868E+002 -4.482373E+001  8.374381E+001
              -4.484038E+001  8.364486E+001 -6.566509E+001 -1.521101E+002 -4.305909E+001  4.703375E+001 -9.408234E-002 -1.904740E+000
              -6.567754E+001 -1.512086E+002 -4.487480E+001  8.369091E+001 -1.052529E-001 -1.906552E+000 -4.318679E+001  4.723530E+001
  30.0000     -4.346089E+001  4.391678E+001 -9.168103E-002 -1.963173E+000 -4.427673E+001  8.372396E+001 -6.537177E+001 -1.530876E+002
              -9.208433E-002 -1.960418E+000 -4.431459E+001  4.766446E+001 -6.537689E+001 -1.536118E+002 -4.428042E+001  8.357811E+001
              -4.427770E+001  8.368771E+001 -6.528686E+001 -1.539012E+002 -4.287579E+001  4.828220E+001 -9.529643E-002 -2.035471E+000
              -6.542377E+001 -1.526629E+002 -4.431563E+001  8.370999E+001 -1.066644E-001 -2.036311E+000 -4.305727E+001  4.764966E+001
  32.0000     -4.331179E+001  4.411209E+001 -9.263061E-002 -2.086676E+000 -4.374227E+001  8.378815E+001 -6.519225E+001 -1.555490E+002
              -9.265994E-002 -2.082689E+000 -4.409385E+001  4.730716E+001 -6.521885E+001 -1.543126E+002 -4.374863E+001  8.363312E+001
              -4.375426E+001  8.363867E+001 -6.512484E+001 -1.548214E+002 -4.258654E+001  4.871360E+001 -9.585413E-002 -2.162117E+000
              -6.531030E+001 -1.544296E+002 -4.378432E+001  8.369577E+001 -1.076081E-001 -2.164953E+000 -4.287614E+001  4.768301E+001
  34.0000     -4.315716E+001  4.445457E+001 -9.343673E-002 -2.208239E+000 -4.325352E+001  8.365578E+001 -6.498771E+001 -1.560309E+002
              -9.387331E-002 -2.215429E+000 -4.398368E+001  4.690887E+001 -6.500447E+001 -1.562731E+002 -4.325021E+001  8.365253E+001
              -4.325523E+001  8.364037E+001 -6.490385E+001 -1.562543E+002 -4.221898E+001  4.939281E+001 -9.712467E-002 -2.291332E+000
              -6.492075E+001 -1.553973E+002 -4.328094E+001  8.358521E+001 -1.091284E-001 -2.292041E+000 -4.258950E+001  4.769934E+001
  36.0000     -4.280826E+001  4.483651E+001 -9.408052E-002 -2.327903E+000 -4.277365E+001  8.363975E+001 -6.484791E+001 -1.582099E+002
              -9.488046E-002 -2.342127E+000 -4.394123E+001  4.764567E+001 -6.476965E+001 -1.569614E+002 -4.278495E+001  8.364050E+001
              -4.278039E+001  8.361339E+001 -6.473133E+001 -1.575768E+002 -4.175033E+001  4.956358E+001 -9.857019E-002 -2.409611E+000
              -6.487500E+001 -1.580888E+002 -4.280999E+001  8.367985E+001 -1.098057E-001 -2.418946E+000 -4.222416E+001  4.769283E+001
  38.0000     -4.252549E+001  4.540653E+001 -9.467222E-002 -2.449538E+000 -4.233228E+001  8.362748E+001 -6.459384E+001 -1.597578E+002
              -9.541710E-002 -2.467984E+000 -4.376348E+001  4.782032E+001 -6.454156E+001 -1.585577E+002 -4.234008E+001  8.361274E+001
              -4.233782E+001  8.358738E+001 -6.453318E+001 -1.587865E+002 -4.135942E+001  4.985899E+001 -9.938474E-002 -2.532662E+000
              -6.477122E+001 -1.587017E+002 -4.235995E+001  8.354823E+001 -1.111961E-001 -2.545984E+000 -4.186927E+001  4.704863E+001
  40.0000     -4.224301E+001  4.604797E+001 -9.560387E-002 -2.571771E+000 -4.191021E+001  8.365719E+001 -6.447755E+001 -1.609023E+002
              -9.602643E-002 -2.594494E+000 -4.356293E+001  4.892056E+001 -6.437569E+001 -1.597995E+002 -4.192059E+001  8.357131E+001
              -4.191125E+001  8.353008E+001 -6.436665E+001 -1.605170E+002 -4.098343E+001  5.006998E+001 -1.008016E-001 -2.653870E+000
              -6.444612E+001 -1.602504E+002 -4.194862E+001  8.361504E+001 -1.126024E-001 -2.672671E+000 -4.156203E+001  4.705668E+001
  42.0000     -4.203877E+001  4.983554E+001 -9.798350E-002 -2.684171E+000 -4.150222E+001  8.353777E+001 -6.416229E+001 -1.617206E+002
              -9.771791E-002 -2.708377E+000 -4.317369E+001  5.223195E+001 -6.407169E+001 -1.606237E+002 -4.151194E+001  8.356295E+001
              -4.151929E+001  8.352506E+001 -6.410387E+001 -1.610903E+002 -4.073650E+001  5.306620E+001 -1.017591E-001 -2.768335E+000
              -6.426376E+001 -1.614841E+002 -4.153933E+001  8.352088E+001 -1.146939E-001 -2.786680E+000 -4.130649E+001  4.996784E+001
  44.0000     -4.176088E+001  5.024826E+001 -9.838781E-002 -2.804195E+000 -4.111397E+001  8.354114E+001 -6.403364E+001 -1.629109E+002
              -9.859093E-002 -2.825826E+000 -4.279533E+001  5.192988E+001 -6.398523E+001 -1.628215E+002 -4.112856E+001  8.356914E+001
              -4.113332E+001  8.352109E+001 -6.391471E+001 -1.627038E+002 -4.042588E+001  5.283537E+001 -1.027761E-001 -2.889391E+000
              -6.404479E+001 -1.625370E+002 -4.114937E+001  8.348496E+001 -1.159181E-001 -2.907127E+000 -4.098502E+001  4.963507E+001
  46.0000     -4.156121E+001  5.066510E+001 -9.866124E-002 -2.927947E+000 -4.074657E+001  8.344824E+001 -6.390249E+001 -1.639469E+002
              -9.950438E-002 -2.946688E+000 -4.241476E+001  5.194302E+001 -6.372813E+001 -1.636552E+002 -4.075644E+001  8.350132E+001
              -4.076615E+001  8.347657E+001 -6.379861E+001 -1.637858E+002 -4.015241E+001  5.287297E+001 -1.040418E-001 -3.012470E+000
              -6.391825E+001 -1.642421E+002 -4.078463E+001  8.348282E+001 -1.166789E-001 -3.029109E+000 -4.072232E+001  4.964757E+001
  48.0000     -4.132750E+001  5.070125E+001 -9.935442E-002 -3.053219E+000 -4.039556E+001  8.341128E+001 -6.370012E+001 -1.647323E+002
              -1.000540E-001 -3.064548E+000 -4.201233E+001  5.195311E+001 -6.352145E+001 -1.653016E+002 -4.040356E+001  8.348180E+001
              -4.040972E+001  8.345316E+001 -6.358119E+001 -1.645490E+002 -3.988847E+001  5.248974E+001 -1.046536E-001 -3.134320E+000
              -6.376645E+001 -1.648858E+002 -4.042740E+001  8.341145E+001 -1.169617E-001 -3.151287E+000 -4.045470E+001  4.973651E+001
  50.0000     -4.109703E+001  5.124391E+001 -9.991671E-002 -3.176233E+000 -4.005780E+001  8.338508E+001 -6.357209E+001 -1.661958E+002
              -1.003658E-001 -3.184191E+000 -4.157447E+001  5.170555E+001 -6.333275E+001 -1.659269E+002 -4.006548E+001  8.343684E+001
              -4.007418E+001  8.338287E+001 -6.343500E+001 -1.655538E+002 -3.965667E+001  5.239900E+001 -1.054854E-001 -3.259223E+000
              -6.355817E+001 -1.663438E+002 -4.009050E+001  8.338881E+001 -1.181913E-001 -3.272658E+000 -4.020207E+001  4.971352E+001
  52.0000     -4.090452E+001  5.133050E+001 -1.002108E-001 -3.296862E+000 -3.972346E+001  8.333056E+001 -6.339111E+001 -1.668606E+002
              -1.012954E-001 -3.302546E+000 -4.120076E+001  5.196070E+001 -6.320958E+001 -1.671134E+002 -3.973349E+001  8.335960E+001
              -3.974207E+001  8.331404E+001 -6.327119E+001 -1.672556E+002 -3.948306E+001  5.189043E+001 -1.057807E-001 -3.379144E+000
              -6.345711E+001 -1.673182E+002 -3.976417E+001  8.333697E+001 -1.192067E-001 -3.397669E+000 -3.994643E+001  4.938343E+001
  54.0000     -4.073222E+001  5.112300E+001 -1.011156E-001 -3.423499E+000 -3.940786E+001  8.326251E+001 -6.323280E+001 -1.683669E+002
              -1.017591E-001 -3.421630E+000 -4.097561E+001  5.157472E+001 -6.316658E+001 -1.680383E+002 -3.942441E+001  8.329740E+001
              -3.942962E+001  8.327625E+001 -6.312352E+001 -1.686288E+002 -3.927984E+001  5.141166E+001 -1.067738E-001 -3.504991E+000
              -6.331695E+001 -1.684171E+002 -3.944370E+001  8.328242E+001 -1.189550E-001 -3.520450E+000 -3.973740E+001  4.896428E+001
  56.0000     -4.051405E+001  5.144381E+001 -1.014018E-001 -3.541839E+000 -3.910136E+001  8.319082E+001 -6.311717E+001 -1.693467E+002
              -1.022032E-001 -3.543635E+000 -4.069975E+001  5.163414E+001 -6.303370E+001 -1.691151E+002 -3.911662E+001  8.325431E+001
              -3.912587E+001  8.324222E+001 -6.297137E+001 -1.692766E+002 -3.911494E+001  5.118661E+001 -1.076690E-001 -3.625659E+000
              -6.310450E+001 -1.696697E+002 -3.913882E+001  8.320553E+001 -1.198283E-001 -3.640996E+000 -3.955045E+001  4.906553E+001
  58.0000     -4.029837E+001  5.123192E+001 -1.020851E-001 -3.666728E+000 -3.881237E+001  8.313914E+001 -6.302549E+001 -1.700674E+002
              -1.025112E-001 -3.661275E+000 -4.057865E+001  5.139789E+001 -6.288467E+001 -1.700701E+002 -3.882036E+001  8.316916E+001
              -3.883125E+001  8.317418E+001 -6.281797E+001 -1.698729E+002 -3.895723E+001  5.030959E+001 -1.077851E-001 -3.748682E+000
              -6.305126E+001 -1.702827E+002 -3.884750E+001  8.317767E+001 -1.199419E-001 -3.761209E+000 -3.932316E+001  4.845153E+001
  60.0000     -4.010450E+001  5.131104E+001 -1.029473E-001 -3.785290E+000 -3.852560E+001  8.310052E+001 -6.285228E+001 -1.708723E+002
              -1.038560E-001 -3.784937E+000 -4.045404E+001  5.146160E+001 -6.273295E+001 -1.713449E+002 -3.853701E+001  8.315752E+001
              -3.854803E+001  8.307057E+001 -6.270702E+001 -1.709328E+002 -3.878277E+001  5.003883E+001 -1.092625E-001 -3.869391E+000
              -6.290949E+001 -1.715046E+002 -3.856471E+001  8.311279E+001 -1.207299E-001 -3.881342E+000 -3.915414E+001  4.845250E+001
  62.0000     -3.993988E+001  5.085648E+001 -1.033821E-001 -3.907288E+000 -3.825479E+001  8.303312E+001 -6.278039E+001 -1.718242E+002
              -1.040540E-001 -3.905382E+000 -4.040445E+001  5.138285E+001 -6.261602E+001 -1.715969E+002 -3.826332E+001  8.310383E+001
              -3.826826E+001  8.304290E+001 -6.266285E+001 -1.714994E+002 -3.865014E+001  4.911955E+001 -1.096386E-001 -3.992100E+000
              -6.278061E+001 -1.725354E+002 -3.828666E+001  8.302126E+001 -1.212358E-001 -4.006145E+000 -3.900350E+001  4.778907E+001
  64.0000     -3.977510E+001  5.066790E+001 -1.039655E-001 -4.027228E+000 -3.798558E+001  8.298608E+001 -6.264693E+001 -1.732930E+002
              -1.051437E-001 -4.025997E+000 -4.028748E+001  5.102390E+001 -6.259268E+001 -1.722481E+002 -3.799881E+001  8.301714E+001
              -3.800168E+001  8.296851E+001 -6.250383E+001 -1.726043E+002 -3.855215E+001  4.849592E+001 -1.103609E-001 -4.112538E+000
              -6.272669E+001 -1.730385E+002 -3.802631E+001  8.296021E+001 -1.222402E-001 -4.128253E+000 -3.887833E+001  4.742605E+001
  66.0000     -3.961158E+001  4.999220E+001 -1.050189E-001 -4.148862E+000 -3.772673E+001  8.289535E+001 -6.251257E+001 -1.741472E+002
              -1.060586E-001 -4.149351E+000 -4.021415E+001  5.047691E+001 -6.249781E+001 -1.735428E+002 -3.773763E+001  8.293810E+001
              -3.774902E+001  8.292265E+001 -6.243069E+001 -1.731733E+002 -3.841273E+001  4.751989E+001 -1.109852E-001 -4.236675E+000
              -6.263204E+001 -1.740876E+002 -3.776271E+001  8.289604E+001 -1.219330E-001 -4.252096E+000 -3.868185E+001  4.676979E+001
  68.0000     -3.949244E+001  4.981742E+001 -1.053274E-001 -4.265107E+000 -3.747361E+001  8.281216E+001 -6.241921E+001 -1.749855E+002
              -1.069232E-001 -4.269495E+000 -4.013016E+001  5.021335E+001 -6.241153E+001 -1.739997E+002 -3.748818E+001  8.284583E+001
              -3.749493E+001  8.282481E+001 -6.236941E+001 -1.739621E+002 -3.837148E+001  4.704787E+001 -1.123347E-001 -4.358994E+000
              -6.251649E+001 -1.745297E+002 -3.750956E+001  8.285456E+001 -1.227814E-001 -4.374488E+000 -3.862006E+001  4.638890E+001
  70.0000     -3.933611E+001  4.949310E+001 -1.064102E-001 -4.385237E+000 -3.723375E+001  8.275961E+001 -6.229955E+001 -1.754933E+002
              -1.076369E-001 -4.389281E+000 -3.993669E+001  4.974658E+001 -6.226686E+001 -1.750932E+002 -3.724445E+001  8.277854E+001
              -3.725360E+001  8.278223E+001 -6.229896E+001 -1.745451E+002 -3.831799E+001  4.655528E+001 -1.132070E-001 -4.482778E+000
              -6.233186E+001 -1.756087E+002 -3.726872E+001  8.274438E+001 -1.242888E-001 -4.497516E+000 -3.848691E+001  4.631420E+001
  72.0000     -3.918201E+001  4.883223E+001 -1.066562E-001 -4.503467E+000 -3.699119E+001  8.270412E+001 -6.226709E+001 -1.762079E+002
              -1.085902E-001 -4.505618E+000 -3.979534E+001  4.952958E+001 -6.227470E+001 -1.753820E+002 -3.700966E+001  8.272397E+001
              -3.701269E+001  8.272684E+001 -6.218339E+001 -1.753633E+002 -3.820768E+001  4.578486E+001 -1.138648E-001 -4.603378E+000
              -6.228189E+001 -1.767557E+002 -3.703233E+001  8.268650E+001 -1.245275E-001 -4.616772E+000 -3.837951E+001  4.568992E+001
  74.0000     -3.901554E+001  4.866474E+001 -1.072458E-001 -4.624417E+000 -3.676240E+001  8.263129E+001 -6.210562E+001 -1.777946E+002
              -1.087737E-001 -4.626168E+000 -3.960550E+001  4.927967E+001 -6.205838E+001 -1.761951E+002 -3.677324E+001  8.261457E+001
              -3.678116E+001  8.262285E+001 -6.205142E+001 -1.761114E+002 -3.816230E+001  4.573974E+001 -1.149805E-001 -4.727234E+000
              -6.216238E+001 -1.770289E+002 -3.680156E+001  8.260364E+001 -1.255934E-001 -4.741944E+000 -3.826350E+001  4.595225E+001
  76.0000     -3.884774E+001  4.831964E+001 -1.080751E-001 -4.742112E+000 -3.653303E+001  8.254441E+001 -6.209487E+001 -1.781644E+002
              -1.097057E-001 -4.745636E+000 -3.937206E+001  4.912485E+001 -6.199179E+001 -1.771619E+002 -3.655346E+001  8.255797E+001
              -3.655702E+001  8.256255E+001 -6.197980E+001 -1.768247E+002 -3.806143E+001  4.539651E+001 -1.150997E-001 -4.851396E+000
              -6.205593E+001 -1.777952E+002 -3.657553E+001  8.254581E+001 -1.250648E-001 -4.864292E+000 -3.814537E+001  4.574109E+001
  78.0000     -3.867465E+001  4.809487E+001 -1.086065E-001 -4.861739E+000 -3.632014E+001  8.247213E+001 -6.192541E+001 -1.789108E+002
              -1.100735E-001 -4.864873E+000 -3.914589E+001  4.898565E+001 -6.183361E+001 -1.777165E+002 -3.633225E+001  8.247942E+001
              -3.633723E+001  8.247112E+001 -6.185825E+001 -1.776758E+002 -3.798771E+001  4.530177E+001 -1.159183E-001 -4.972308E+000
              -6.199624E+001 -1.789815E+002 -3.635391E+001  8.243660E+001 -1.264832E-001 -4.983086E+000 -3.805068E+001  4.585515E+001
  80.0000     -3.856604E+001  4.770308E+001 -1.090321E-001 -4.982771E+000 -3.610569E+001  8.236529E+001 -6.179866E+001 -1.795292E+002
              -1.109410E-001 -4.987154E+000 -3.893527E+001  4.827289E+001 -6.173311E+001 -1.786288E+002 -3.612136E+001  8.238794E+001
