!Agilent Technologies,E5071B,MY42403616,A.09.10
!Date: Wed Jun 21 15:55:27 2017
!Data & Calibration Information:
!Freq	S11:SOLT1(ON)
# Hz S dB R 50
300000	-8.850844e-001	-3.285567e+000
5612313	-8.565181e-001	-3.018663e+000
10924625	-8.204543e-001	-2.684658e+000
16236938	-7.946648e-001	-2.361183e+000
21549250	-7.605036e-001	-2.080475e+000
26861563	-7.418213e-001	-1.721942e+000
32173875	-7.302572e-001	-1.462959e+000
37486188	-7.070255e-001	-1.339860e+000
42798500	-7.003847e-001	-1.171957e+000
48110813	-6.923251e-001	-1.126922e+000
53423125	-6.878035e-001	-1.102560e+000
58735438	-6.913115e-001	-1.053290e+000
64047750	-7.053747e-001	-1.093724e+000
69360063	-7.162370e-001	-1.137677e+000
74672375	-7.212955e-001	-1.211942e+000
79984688	-7.337060e-001	-1.310750e+000
85297000	-7.410372e-001	-1.428889e+000
90609313	-7.487186e-001	-1.543658e+000
95921625	-7.617793e-001	-1.656245e+000
101233938	-7.654924e-001	-1.773717e+000
106546250	-7.699099e-001	-1.850666e+000
111858563	-7.643093e-001	-1.922335e+000
117170875	-7.657649e-001	-2.002936e+000
122483188	-7.689110e-001	-2.123052e+000
127795500	-7.708592e-001	-2.206372e+000
133107813	-7.729365e-001	-2.349092e+000
138420125	-7.709731e-001	-2.459084e+000
143732438	-7.772026e-001	-2.585365e+000
149044750	-7.760686e-001	-2.680992e+000
154357063	-7.843049e-001	-2.789654e+000
159669375	-7.842140e-001	-2.931303e+000
164981688	-7.922596e-001	-3.037017e+000
170294000	-7.942185e-001	-3.178852e+000
175606313	-7.923768e-001	-3.297964e+000
180918625	-7.919855e-001	-3.420739e+000
186230938	-7.946653e-001	-3.520627e+000
191543250	-8.029442e-001	-3.632267e+000
196855563	-8.004664e-001	-3.738001e+000
202167875	-7.984896e-001	-3.830885e+000
207480188	-8.006875e-001	-3.918187e+000
212792500	-7.956638e-001	-4.022010e+000
218104813	-7.959143e-001	-4.108875e+000
223417125	-7.934164e-001	-4.192353e+000
228729438	-7.921448e-001	-4.257163e+000
234041750	-7.895427e-001	-4.318425e+000
239354063	-7.879227e-001	-4.349018e+000
244666375	-7.854250e-001	-4.423417e+000
249978688	-7.815556e-001	-4.492928e+000
255291000	-7.755049e-001	-4.546468e+000
260603313	-7.789246e-001	-4.604845e+000
265915625	-7.683014e-001	-4.701744e+000
271227938	-7.720571e-001	-4.767955e+000
276540250	-7.742472e-001	-4.825863e+000
281852563	-7.692718e-001	-4.905512e+000
287164875	-7.715544e-001	-5.065288e+000
292477188	-7.735013e-001	-5.139372e+000
297789500	-7.787262e-001	-5.186513e+000
303101813	-7.773345e-001	-5.311205e+000
308414125	-7.841535e-001	-5.425160e+000
313726438	-7.912103e-001	-5.555954e+000
319038750	-7.991389e-001	-5.699304e+000
324351063	-8.095094e-001	-5.842973e+000
329663375	-8.160820e-001	-6.004613e+000
334975688	-8.212094e-001	-6.126441e+000
340288000	-8.294549e-001	-6.281780e+000
345600313	-8.341777e-001	-6.461605e+000
350912625	-8.462654e-001	-6.597290e+000
356224938	-8.548994e-001	-6.778631e+000
361537250	-8.616590e-001	-6.917040e+000
366849563	-8.683444e-001	-7.072231e+000
372161875	-8.767315e-001	-7.166256e+000
377474188	-8.769904e-001	-7.313004e+000
382786500	-8.840719e-001	-7.409203e+000
388098813	-8.889555e-001	-7.524115e+000
393411125	-8.867614e-001	-7.615362e+000
398723438	-8.901842e-001	-7.721393e+000
404035750	-8.906583e-001	-7.808513e+000
409348063	-8.868367e-001	-7.890365e+000
414660375	-8.823000e-001	-7.967815e+000
419972688	-8.740607e-001	-8.071846e+000
425285000	-8.810805e-001	-8.130390e+000
430597313	-8.745359e-001	-8.205640e+000
435909625	-8.690722e-001	-8.267757e+000
441221938	-8.649510e-001	-8.383238e+000
446534250	-8.559705e-001	-8.403664e+000
451846563	-8.469565e-001	-8.492970e+000
457158875	-8.466758e-001	-8.512815e+000
462471188	-8.410006e-001	-8.603239e+000
467783500	-8.444642e-001	-8.676314e+000
473095813	-8.407011e-001	-8.754261e+000
478408125	-8.396599e-001	-8.823507e+000
483720438	-8.359225e-001	-8.909198e+000
489032750	-8.359889e-001	-9.023272e+000
494345063	-8.298185e-001	-9.078576e+000
499657375	-8.347922e-001	-9.217939e+000
504969688	-8.361204e-001	-9.296027e+000
510282000	-8.343313e-001	-9.432218e+000
515594313	-8.518649e-001	-9.597594e+000
520906625	-8.525436e-001	-9.679072e+000
526218938	-8.566998e-001	-9.802890e+000
531531250	-8.606436e-001	-9.937540e+000
536843563	-8.694236e-001	-1.006440e+001
542155875	-8.719636e-001	-1.021117e+001
547468188	-8.818811e-001	-1.034633e+001
552780500	-8.799046e-001	-1.046416e+001
558092813	-8.842251e-001	-1.055368e+001
563405125	-8.909194e-001	-1.068912e+001
568717438	-8.969053e-001	-1.078362e+001
574029750	-8.958472e-001	-1.088524e+001
579342063	-9.000725e-001	-1.097968e+001
584654375	-8.937090e-001	-1.111753e+001
589966688	-8.977044e-001	-1.115550e+001
595279000	-8.917176e-001	-1.125932e+001
600591313	-8.871747e-001	-1.130107e+001
605903625	-8.875503e-001	-1.135333e+001
611215938	-8.804064e-001	-1.143791e+001
616528250	-8.741908e-001	-1.149501e+001
621840563	-8.639187e-001	-1.152944e+001
627152875	-8.746082e-001	-1.165267e+001
632465188	-8.650938e-001	-1.168558e+001
637777500	-8.619667e-001	-1.174766e+001
643089813	-8.543981e-001	-1.180974e+001
648402125	-8.486945e-001	-1.187039e+001
653714438	-8.418015e-001	-1.192766e+001
659026750	-8.465564e-001	-1.206393e+001
664339063	-8.462920e-001	-1.213747e+001
669651375	-8.430843e-001	-1.221656e+001
674963688	-8.444700e-001	-1.233412e+001
680276000	-8.447378e-001	-1.241022e+001
685588313	-8.495485e-001	-1.250326e+001
690900625	-8.553753e-001	-1.261341e+001
696212938	-8.583053e-001	-1.270758e+001
701525250	-8.599419e-001	-1.281906e+001
706837563	-8.610704e-001	-1.292710e+001
712149875	-8.552153e-001	-1.306861e+001
717462188	-8.688251e-001	-1.320162e+001
722774500	-8.762855e-001	-1.331335e+001
728086813	-8.826132e-001	-1.344556e+001
733399125	-8.896761e-001	-1.357574e+001
738711438	-8.963171e-001	-1.368962e+001
744023750	-8.967469e-001	-1.376842e+001
749336063	-8.999615e-001	-1.388774e+001
754648375	-9.008473e-001	-1.400118e+001
759960688	-9.103443e-001	-1.408910e+001
765273000	-9.077515e-001	-1.417526e+001
770585313	-9.046783e-001	-1.428021e+001
775897625	-9.032037e-001	-1.431384e+001
781209938	-9.037826e-001	-1.440831e+001
786522250	-9.046229e-001	-1.443379e+001
791834563	-9.017455e-001	-1.449975e+001
797146875	-9.056234e-001	-1.459935e+001
802459188	-8.984112e-001	-1.467636e+001
807771500	-8.964415e-001	-1.469694e+001
813083813	-8.958564e-001	-1.470405e+001
818396125	-8.956813e-001	-1.483079e+001
823708438	-8.933002e-001	-1.490662e+001
829020750	-8.942868e-001	-1.487851e+001
834333063	-9.025834e-001	-1.501510e+001
839645375	-8.941796e-001	-1.512375e+001
844957688	-8.932958e-001	-1.516093e+001
850270000	-8.903324e-001	-1.531851e+001
855582313	-8.985698e-001	-1.533075e+001
860894625	-9.051648e-001	-1.548303e+001
866206938	-9.051613e-001	-1.555631e+001
871519250	-9.018993e-001	-1.565490e+001
876831563	-9.018825e-001	-1.578425e+001
882143875	-9.079429e-001	-1.589779e+001
887456188	-9.162153e-001	-1.594214e+001
892768500	-9.170527e-001	-1.604766e+001
898080813	-9.248796e-001	-1.618947e+001
903393125	-9.284693e-001	-1.625392e+001
908705438	-9.300838e-001	-1.638554e+001
914017750	-9.378479e-001	-1.648841e+001
919330063	-9.436969e-001	-1.658031e+001
924642375	-9.352193e-001	-1.663972e+001
929954688	-9.418867e-001	-1.674113e+001
935267000	-9.378254e-001	-1.683304e+001
940579313	-9.459221e-001	-1.699691e+001
945891625	-9.429539e-001	-1.696915e+001
951203938	-9.397563e-001	-1.708961e+001
956516250	-9.518210e-001	-1.720994e+001
961828563	-9.505044e-001	-1.729185e+001
967140875	-9.461469e-001	-1.740033e+001
972453188	-9.534387e-001	-1.740507e+001
977765500	-9.592108e-001	-1.745409e+001
983077813	-9.574165e-001	-1.756903e+001
988390125	-9.568650e-001	-1.762384e+001
993702438	-9.527393e-001	-1.773402e+001
999014750	-9.616126e-001	-1.780874e+001
1004327063	-9.602863e-001	-1.786916e+001
1009639375	-9.564510e-001	-1.796520e+001
1014951688	-9.566775e-001	-1.803716e+001
1020264000	-9.656733e-001	-1.814174e+001
1025576313	-9.692186e-001	-1.825906e+001
1030888625	-9.707029e-001	-1.829840e+001
1036200938	-9.687033e-001	-1.839483e+001
1041513250	-9.712120e-001	-1.848655e+001
1046825563	-9.736257e-001	-1.856648e+001
1052137875	-9.800990e-001	-1.864162e+001
1057450188	-9.831962e-001	-1.878464e+001
1062762500	-9.861496e-001	-1.887066e+001
1068074813	-9.847050e-001	-1.891588e+001
1073387125	-9.827925e-001	-1.903469e+001
1078699438	-9.854749e-001	-1.917158e+001
1084011750	-9.911036e-001	-1.923175e+001
1089324063	-9.874235e-001	-1.926416e+001
1094636375	-9.933714e-001	-1.936726e+001
1099948688	-9.907284e-001	-1.943555e+001
1105261000	-9.947960e-001	-1.950985e+001
1110573313	-9.867153e-001	-1.953432e+001
1115885625	-9.859321e-001	-1.960882e+001
1121197938	-9.903196e-001	-1.969163e+001
1126510250	-9.925202e-001	-1.972579e+001
1131822563	-9.970913e-001	-1.979301e+001
1137134875	-9.983051e-001	-1.985167e+001
1142447188	-9.947959e-001	-1.990664e+001
1147759500	-9.920006e-001	-1.996871e+001
1153071813	-9.943381e-001	-2.002238e+001
1158384125	-9.977314e-001	-2.011813e+001
1163696438	-1.006066e+000	-2.021325e+001
1169008750	-1.011022e+000	-2.024735e+001
1174321063	-1.016480e+000	-2.034851e+001
1179633375	-1.020623e+000	-2.043702e+001
1184945688	-1.020425e+000	-2.053661e+001
1190258000	-1.020514e+000	-2.063648e+001
1195570313	-1.032259e+000	-2.072957e+001
1200882625	-1.038841e+000	-2.082080e+001
1206194938	-1.043548e+000	-2.093191e+001
1211507250	-1.043797e+000	-2.104261e+001
1216819563	-1.052444e+000	-2.117037e+001
1222131875	-1.050346e+000	-2.122636e+001
1227444188	-1.050869e+000	-2.136314e+001
1232756500	-1.059000e+000	-2.146521e+001
1238068813	-1.055394e+000	-2.157332e+001
1243381125	-1.053255e+000	-2.166052e+001
1248693438	-1.060638e+000	-2.175448e+001
1254005750	-1.059333e+000	-2.185170e+001
1259318063	-1.058163e+000	-2.190753e+001
1264630375	-1.047710e+000	-2.198592e+001
1269942688	-1.047657e+000	-2.203786e+001
1275255000	-1.044725e+000	-2.210091e+001
1280567313	-1.036650e+000	-2.217921e+001
1285879625	-1.031521e+000	-2.215805e+001
1291191938	-1.031810e+000	-2.218063e+001
1296504250	-1.029748e+000	-2.219540e+001
1301816563	-1.030844e+000	-2.223332e+001
1307128875	-1.032510e+000	-2.220644e+001
1312441188	-1.028448e+000	-2.225076e+001
1317753500	-1.025172e+000	-2.224492e+001
1323065813	-1.024013e+000	-2.221758e+001
1328378125	-1.021065e+000	-2.229153e+001
1333690438	-1.017163e+000	-2.231108e+001
1339002750	-1.025104e+000	-2.232468e+001
1344315063	-1.031083e+000	-2.237425e+001
1349627375	-1.031175e+000	-2.244366e+001
1354939688	-1.034697e+000	-2.255268e+001
1360252000	-1.055189e+000	-2.259974e+001
1365564313	-1.048463e+000	-2.269398e+001
1370876625	-1.055217e+000	-2.282632e+001
1376188938	-1.060810e+000	-2.292534e+001
1381501250	-1.069912e+000	-2.302549e+001
1386813563	-1.077685e+000	-2.312618e+001
1392125875	-1.084764e+000	-2.332300e+001
1397438188	-1.084648e+000	-2.342499e+001
1402750500	-1.092817e+000	-2.353809e+001
1408062813	-1.095969e+000	-2.366137e+001
1413375125	-1.099119e+000	-2.381347e+001
1418687438	-1.101916e+000	-2.392477e+001
1423999750	-1.103336e+000	-2.406068e+001
1429312063	-1.100948e+000	-2.418284e+001
1434624375	-1.106476e+000	-2.426783e+001
1439936688	-1.097939e+000	-2.441149e+001
1445249000	-1.094072e+000	-2.453112e+001
1450561313	-1.090671e+000	-2.455097e+001
1455873625	-1.090966e+000	-2.465133e+001
1461185938	-1.088737e+000	-2.466397e+001
1466498250	-1.081318e+000	-2.474245e+001
1471810563	-1.081374e+000	-2.487007e+001
1477122875	-1.080246e+000	-2.488773e+001
1482435188	-1.075376e+000	-2.490671e+001
1487747500	-1.078203e+000	-2.490949e+001
1493059813	-1.067895e+000	-2.491176e+001
1498372125	-1.074152e+000	-2.494279e+001
1503684438	-1.068884e+000	-2.497258e+001
1508996750	-1.067009e+000	-2.500611e+001
1514309063	-1.076848e+000	-2.502746e+001
1519621375	-1.078476e+000	-2.508330e+001
1524933688	-1.070520e+000	-2.509913e+001
1530246000	-1.075332e+000	-2.514579e+001
1535558313	-1.085356e+000	-2.519651e+001
1540870625	-1.089008e+000	-2.523088e+001
1546182938	-1.096656e+000	-2.530294e+001
1551495250	-1.109181e+000	-2.537420e+001
1556807563	-1.116595e+000	-2.549261e+001
1562119875	-1.121279e+000	-2.559315e+001
1567432188	-1.123456e+000	-2.568458e+001
1572744500	-1.132689e+000	-2.582514e+001
1578056813	-1.141220e+000	-2.593422e+001
1583369125	-1.137124e+000	-2.605293e+001
1588681438	-1.141416e+000	-2.614229e+001
1593993750	-1.141584e+000	-2.629818e+001
1599306063	-1.147268e+000	-2.642108e+001
1604618375	-1.149935e+000	-2.645824e+001
1609930688	-1.151133e+000	-2.651945e+001
1615243000	-1.146209e+000	-2.662969e+001
1620555313	-1.141074e+000	-2.670285e+001
1625867625	-1.145788e+000	-2.674355e+001
1631179938	-1.139146e+000	-2.681823e+001
1636492250	-1.136005e+000	-2.685832e+001
1641804563	-1.137112e+000	-2.685454e+001
1647116875	-1.132776e+000	-2.687263e+001
1652429188	-1.126247e+000	-2.690036e+001
1657741500	-1.118321e+000	-2.695220e+001
1663053813	-1.127093e+000	-2.694438e+001
1668366125	-1.128733e+000	-2.692641e+001
1673678438	-1.129285e+000	-2.692932e+001
1678990750	-1.128958e+000	-2.691855e+001
1684303063	-1.124587e+000	-2.694638e+001
1689615375	-1.132393e+000	-2.696282e+001
1694927688	-1.129780e+000	-2.696457e+001
1700240000	-1.132749e+000	-2.697702e+001
1705552313	-1.140723e+000	-2.698801e+001
1710864625	-1.150107e+000	-2.710540e+001
1716176938	-1.148778e+000	-2.710977e+001
1721489250	-1.152416e+000	-2.721403e+001
1726801563	-1.158676e+000	-2.730639e+001
1732113875	-1.165868e+000	-2.737092e+001
1737426188	-1.171758e+000	-2.742484e+001
1742738500	-1.175614e+000	-2.748140e+001
1748050813	-1.173862e+000	-2.760333e+001
1753363125	-1.186544e+000	-2.768888e+001
1758675438	-1.181774e+000	-2.780920e+001
1763987750	-1.180628e+000	-2.786553e+001
1769300063	-1.189041e+000	-2.796423e+001
1774612375	-1.176442e+000	-2.811676e+001
1779924688	-1.192007e+000	-2.810474e+001
1785237000	-1.187395e+000	-2.832863e+001
1790549313	-1.191586e+000	-2.829196e+001
1795861625	-1.192912e+000	-2.842092e+001
1801173938	-1.187544e+000	-2.844381e+001
1806486250	-1.185873e+000	-2.849529e+001
1811798563	-1.183287e+000	-2.852676e+001
1817110875	-1.180489e+000	-2.858045e+001
1822423188	-1.184792e+000	-2.854916e+001
1827735500	-1.179876e+000	-2.858371e+001
1833047813	-1.180331e+000	-2.858982e+001
1838360125	-1.171315e+000	-2.856999e+001
1843672438	-1.170407e+000	-2.862880e+001
1848984750	-1.165737e+000	-2.859418e+001
1854297063	-1.167573e+000	-2.859828e+001
1859609375	-1.167385e+000	-2.861596e+001
1864921688	-1.172331e+000	-2.856075e+001
1870234000	-1.167630e+000	-2.857774e+001
1875546313	-1.168506e+000	-2.854185e+001
1880858625	-1.161114e+000	-2.851796e+001
1886170938	-1.164169e+000	-2.856168e+001
1891483250	-1.162670e+000	-2.861776e+001
1896795563	-1.166267e+000	-2.859460e+001
1902107875	-1.173470e+000	-2.862917e+001
1907420188	-1.176826e+000	-2.869216e+001
1912732500	-1.179399e+000	-2.876542e+001
1918044813	-1.179051e+000	-2.879758e+001
1923357125	-1.187603e+000	-2.886926e+001
1928669438	-1.186236e+000	-2.894435e+001
1933981750	-1.185871e+000	-2.898920e+001
1939294063	-1.186693e+000	-2.904849e+001
1944606375	-1.194586e+000	-2.916293e+001
1949918688	-1.196458e+000	-2.925013e+001
1955231000	-1.201986e+000	-2.931803e+001
1960543313	-1.205788e+000	-2.940580e+001
1965855625	-1.211627e+000	-2.948327e+001
1971167938	-1.208788e+000	-2.956063e+001
1976480250	-1.214519e+000	-2.964943e+001
1981792563	-1.217418e+000	-2.970631e+001
1987104875	-1.218503e+000	-2.975849e+001
1992417188	-1.219325e+000	-2.981183e+001
1997729500	-1.223682e+000	-2.986577e+001
2003041813	-1.227296e+000	-2.989533e+001
2008354125	-1.223694e+000	-2.992142e+001
2013666438	-1.229681e+000	-2.989700e+001
2018978750	-1.227667e+000	-2.989240e+001
2024291063	-1.233521e+000	-2.985124e+001
2029603375	-1.230517e+000	-2.989826e+001
2034915688	-1.232104e+000	-2.986592e+001
2040228000	-1.232484e+000	-2.984289e+001
2045540313	-1.236341e+000	-2.980836e+001
2050852625	-1.237944e+000	-2.980665e+001
2056164938	-1.234904e+000	-2.977938e+001
2061477250	-1.237035e+000	-2.979953e+001
2066789563	-1.240037e+000	-2.979227e+001
2072101875	-1.234132e+000	-2.982025e+001
2077414188	-1.230330e+000	-2.982530e+001
2082726500	-1.225283e+000	-2.984710e+001
2088038813	-1.230145e+000	-2.987196e+001
2093351125	-1.228792e+000	-2.988413e+001
2098663438	-1.231538e+000	-2.991601e+001
2103975750	-1.231865e+000	-2.996987e+001
2109288063	-1.233107e+000	-3.000948e+001
2114600375	-1.228538e+000	-3.005642e+001
2119912688	-1.227753e+000	-3.009448e+001
2125225000	-1.223722e+000	-3.008592e+001
2130537313	-1.221255e+000	-3.017247e+001
2135849625	-1.220439e+000	-3.026221e+001
2141161938	-1.220978e+000	-3.027246e+001
2146474250	-1.222025e+000	-3.030798e+001
2151786563	-1.224851e+000	-3.041785e+001
2157098875	-1.226541e+000	-3.037416e+001
2162411188	-1.224526e+000	-3.041396e+001
2167723500	-1.240253e+000	-3.047326e+001
2173035813	-1.239648e+000	-3.049064e+001
2178348125	-1.238102e+000	-3.051188e+001
2183660438	-1.244177e+000	-3.060571e+001
2188972750	-1.250859e+000	-3.060980e+001
2194285063	-1.260594e+000	-3.065011e+001
2199597375	-1.261216e+000	-3.069029e+001
2204909688	-1.264376e+000	-3.068775e+001
2210222000	-1.274545e+000	-3.072068e+001
2215534313	-1.282672e+000	-3.075157e+001
2220846625	-1.283169e+000	-3.074880e+001
2226158938	-1.293014e+000	-3.077940e+001
2231471250	-1.302033e+000	-3.078375e+001
2236783563	-1.298395e+000	-3.075730e+001
2242095875	-1.295741e+000	-3.073876e+001
2247408188	-1.298539e+000	-3.077952e+001
2252720500	-1.296229e+000	-3.072949e+001
2258032813	-1.302713e+000	-3.074046e+001
2263345125	-1.297412e+000	-3.068639e+001
2268657438	-1.286901e+000	-3.062809e+001
2273969750	-1.286809e+000	-3.060973e+001
2279282063	-1.282749e+000	-3.061195e+001
2284594375	-1.283020e+000	-3.063797e+001
2289906688	-1.278711e+000	-3.066530e+001
2295219000	-1.276520e+000	-3.065118e+001
2300531313	-1.279043e+000	-3.059703e+001
2305843625	-1.272796e+000	-3.059475e+001
2311155938	-1.272923e+000	-3.062018e+001
2316468250	-1.275388e+000	-3.063657e+001
2321780563	-1.271478e+000	-3.068962e+001
2327092875	-1.266833e+000	-3.068142e+001
2332405188	-1.271140e+000	-3.071033e+001
2337717500	-1.277379e+000	-3.075348e+001
2343029813	-1.280164e+000	-3.081473e+001
2348342125	-1.276548e+000	-3.078599e+001
2353654438	-1.285181e+000	-3.080232e+001
2358966750	-1.284670e+000	-3.081759e+001
2364279063	-1.288813e+000	-3.084226e+001
2369591375	-1.293894e+000	-3.089192e+001
2374903688	-1.303686e+000	-3.088195e+001
2380216000	-1.301913e+000	-3.084761e+001
2385528313	-1.314052e+000	-3.081340e+001
2390840625	-1.316492e+000	-3.083080e+001
2396152938	-1.318565e+000	-3.081065e+001
2401465250	-1.325060e+000	-3.075819e+001
2406777563	-1.331653e+000	-3.074667e+001
2412089875	-1.336399e+000	-3.070304e+001
2417402188	-1.342553e+000	-3.072586e+001
2422714500	-1.347950e+000	-3.073750e+001
2428026813	-1.349674e+000	-3.071936e+001
2433339125	-1.354392e+000	-3.075229e+001
2438651438	-1.361247e+000	-3.076818e+001
2443963750	-1.359083e+000	-3.074589e+001
2449276063	-1.361027e+000	-3.073450e+001
2454588375	-1.370898e+000	-3.073917e+001
2459900688	-1.378730e+000	-3.072794e+001
2465213000	-1.372695e+000	-3.077824e+001
2470525313	-1.376645e+000	-3.080124e+001
2475837625	-1.384295e+000	-3.082579e+001
2481149938	-1.383864e+000	-3.085090e+001
2486462250	-1.375621e+000	-3.090125e+001
2491774563	-1.372938e+000	-3.091283e+001
2497086875	-1.376926e+000	-3.090971e+001
2502399188	-1.376665e+000	-3.095678e+001
2507711500	-1.374281e+000	-3.099950e+001
2513023813	-1.373111e+000	-3.101570e+001
2518336125	-1.367034e+000	-3.099862e+001
2523648438	-1.365500e+000	-3.101724e+001
2528960750	-1.364238e+000	-3.099564e+001
2534273063	-1.363936e+000	-3.099633e+001
2539585375	-1.353322e+000	-3.097669e+001
2544897688	-1.357742e+000	-3.095379e+001
2550210000	-1.356837e+000	-3.085227e+001
2555522313	-1.354356e+000	-3.079854e+001
2560834625	-1.354099e+000	-3.076136e+001
2566146938	-1.345604e+000	-3.069715e+001
2571459250	-1.356707e+000	-3.066583e+001
2576771563	-1.358518e+000	-3.060300e+001
2582083875	-1.367983e+000	-3.058420e+001
2587396188	-1.368246e+000	-3.051013e+001
2592708500	-1.378399e+000	-3.043964e+001
