<Qucs Dataset 0.0.19>
<indep frequency 19>
  +1.70000000000000000000e+09
  +1.71111111111111116409e+09
  +1.72222222222222232819e+09
  +1.73333333333333325386e+09
  +1.74444444444444441795e+09
  +1.75555555555555558205e+09
  +1.76666666666666674614e+09
  +1.77777777777777767181e+09
  +1.78888888888888883591e+09
  +1.80000000000000000000e+09
  +1.81111111111111116409e+09
  +1.82222222222222232819e+09
  +1.83333333333333325386e+09
  +1.84444444444444441795e+09
  +1.85555555555555558205e+09
  +1.86666666666666674614e+09
  +1.87777777777777767181e+09
  +1.88888888888888883591e+09
  +1.90000000000000000000e+09
</indep>
<dep S41dB frequency>
  -1.33776499999999991530e+01
  -1.33655349332110553462e+01
  -1.33549915840040238635e+01
  -1.33453666977759723977e+01
  -1.33359447610156891528e+01
  -1.33260806075308195773e+01
  -1.33168436268265217848e+01
  -1.33091160284689564719e+01
  -1.33018793781898949646e+01
  -1.32950599999999994338e+01
  -1.32895640048871417349e+01
  -1.32828393327665512658e+01
  -1.32773469397193633057e+01
  -1.32724382231999733506e+01
  -1.32684681983749790390e+01
  -1.32654133306139403459e+01
  -1.32615047876430480756e+01
  -1.32578248669667928539e+01
  -1.32550699999999999079e+01
</dep>
<dep S31dB frequency>
  -3.44744000000000028194e+01
  -3.43692642028023982448e+01
  -3.42470188690099206497e+01
  -3.41180640204994816145e+01
  -3.40057626091437512628e+01
  -3.38822228104294111972e+01
  -3.37629726333649031744e+01
  -3.36531889818781522195e+01
  -3.35361827127826614969e+01
  -3.34246600000000100295e+01
  -3.33209985050366270798e+01
  -3.32270653473465102934e+01
  -3.31469596690361925084e+01
  -3.30702274599159409263e+01
  -3.29951802528364623868e+01
  -3.29103589631550264016e+01
  -3.28299471845802770531e+01
  -3.27406149088060658414e+01
  -3.26555299999999988358e+01
</dep>
<dep S21dB frequency>
  -4.61035500000000819654e-01
  -4.61591852179806194645e-01
  -4.63686219414051969956e-01
  -4.66576366069904602263e-01
  -4.68510567788363418984e-01
  -4.70523601060755747305e-01
  -4.71714747357110719683e-01
  -4.73967363573033539925e-01
  -4.75689308440296665381e-01
  -4.77477600000000723668e-01
  -4.79975622264026069441e-01
  -4.81055241489675988742e-01
  -4.82382061640742931807e-01
  -4.83357354246806703024e-01
  -4.85119085461193311204e-01
  -4.86636946965028904799e-01
  -4.88325162356485709125e-01
  -4.89482623230898805655e-01
  -4.90641499999999786130e-01
</dep>
<dep S43dB frequency>
  -4.66468300000000057892e-01
  -4.67976204965481812348e-01
  -4.70031414012744841457e-01
  -4.71458973747672149823e-01
  -4.72856737121984394001e-01
  -4.74018416915955642654e-01
  -4.74582693484693174391e-01
  -4.75595502317212315280e-01
  -4.77207188854376851417e-01
  -4.79270700000000104968e-01
  -4.80191319046442188778e-01
  -4.81001364848011703224e-01
  -4.81789781002275374622e-01
  -4.82498515803570615645e-01
  -4.83373582185176953185e-01
  -4.83769580618344297029e-01
  -4.84159414281998601304e-01
  -4.84773511888601460473e-01
  -4.86905500000001378869e-01
</dep>
<dep S11dB frequency>
  -2.27580600000000004002e+01
  -2.27014607498291454135e+01
  -2.26399448160259169072e+01
  -2.25702988450961683498e+01
  -2.24832386134807933331e+01
  -2.23761048799719191038e+01
  -2.22654503743144687178e+01
  -2.21727350397097495716e+01
  -2.20887767553081637573e+01
  -2.20204200000000014370e+01
  -2.19593052908973618287e+01
  -2.19084000506845590905e+01
  -2.18652645160466789775e+01
  -2.18174494480485670067e+01
  -2.17606386237352502633e+01
  -2.16926752516285183958e+01
  -2.16236245339986652425e+01
  -2.15519439153541014775e+01
  -2.14912399999999976785e+01
</dep>
<dep S[3,3] frequency>
  +8.33528411858550505320e-02-j3.41453019220921971666e-03
  +8.40003867933055564654e-02-j4.12604821811979327606e-03
  +8.48034537093907969663e-02-j4.92349901150312962983e-03
  +8.56145857240361157769e-02-j5.86634770292093765676e-03
  +8.61691387981076972746e-02-j6.82571222956895873324e-03
  +8.66767860653767097112e-02-j7.77412105674496478613e-03
  +8.71456197121989739607e-02-j8.66072871652706632872e-03
  +8.76529721169727604746e-02-j9.63372177739191259960e-03
  +8.81838944613795028271e-02-j1.05461813512936208870e-02
  +8.86900096362614187573e-02-j1.13764385983736171504e-02
  +8.91530707527268817536e-02-j1.21427453900161130829e-02
  +8.95445347605439978533e-02-j1.29334764068538554671e-02
  +8.99005680038096888218e-02-j1.36174964912413876128e-02
  +9.02808158427904905441e-02-j1.43906442747561702511e-02
  +9.06439280843286121492e-02-j1.50572047350304438762e-02
  +9.10029353080006320198e-02-j1.59180667467571090867e-02
  +9.12073851746263986051e-02-j1.68075698610943569111e-02
  +9.13988403247064651325e-02-j1.77161208462514041528e-02
  +9.15817770587758761547e-02-j1.84891478781370466322e-02
</dep>
<dep S[3,4] frequency>
  -1.38529368804425817574e-01-j9.36677811332843446301e-01
  -1.48752571418071577458e-01-j9.35042494477970942413e-01
  -1.58855714901440236986e-01-j9.33255458520646397069e-01
  -1.68907493437574024453e-01-j9.31322809032619769454e-01
  -1.79075379759795261236e-01-j9.29334231098323693132e-01
  -1.89199058920167140219e-01-j9.27170599242993498379e-01
  -1.99314040053803764874e-01-j9.24819997678824501364e-01
  -2.09492442912016962886e-01-j9.22383347285296584239e-01
  -2.19625683452784381533e-01-j9.19816605160903466576e-01
  -2.29746847198620235408e-01-j9.17119332782598384313e-01
  -2.39731662275888712799e-01-j9.14478275630320469602e-01
  -2.49762047448408630590e-01-j9.11729922390241087626e-01
  -2.59691979127097016811e-01-j9.08855687019301194951e-01
  -2.69629214934692773564e-01-j9.05878812912021880166e-01
  -2.79539404746978914496e-01-j9.02732964607915189248e-01
  -2.89343566759110548681e-01-j8.99556014945872006727e-01
  -2.99160654861642283375e-01-j8.96337692366898419749e-01
  -3.08977400787056988296e-01-j8.92861403719171553561e-01
  -3.18774751950208268259e-01-j8.89329962044643984598e-01
</dep>
<dep S[3,2] frequency>
  +2.12692042493955901783e-01-j2.72977833602029984483e-02
  +2.12677519710762374938e-01-j2.95813883736862626161e-02
  +2.12643696336815846148e-01-j3.18775694814291410406e-02
  +2.12544770625280488030e-01-j3.41326417700104078889e-02
  +2.12412470114943796595e-01-j3.64335232782428408704e-02
  +2.12234678155603539995e-01-j3.87250909033771406609e-02
  +2.12007947136888669215e-01-j4.10031686426928776434e-02
  +2.11729579070226825444e-01-j4.32908102238208358781e-02
  +2.11403361475759027366e-01-j4.55872874614810241756e-02
  +2.11023695764981727985e-01-j4.78531709106300995327e-02
  +2.10660659345803469300e-01-j5.01310243366370478224e-02
  +2.10271963704597747435e-01-j5.24006675856373560496e-02
  +2.09830824243929070505e-01-j5.46648458831957839710e-02
  +2.09344226459568849563e-01-j5.69156685707055409740e-02
  +2.08802820166531039048e-01-j5.91451395117286449210e-02
  +2.08240593994760303520e-01-j6.13661677424278961812e-02
  +2.07624917423062882449e-01-j6.35904259857228981723e-02
  +2.06970438839411574605e-01-j6.58044652427239584735e-02
  +2.06277545694980996016e-01-j6.79907160181755232387e-02
</dep>
<dep S[3,1] frequency>
  +5.82195310391368792136e-03+j1.79726435734367528951e-02
  +6.21346440002136513048e-03+j1.80845126388140542417e-02
  +6.58742388516914134655e-03+j1.82401021316343781020e-02
  +6.97152766290121128634e-03+j1.84072843059066293403e-02
  +7.34787538729658740166e-03+j1.85361269906077208436e-02
  +7.71220767318536726265e-03+j1.86968740147918643935e-02
  +8.08893000884844393106e-03+j1.88416549628303009456e-02
  +8.54188474779396522685e-03+j1.89271904373933819166e-02
  +9.00024814783451088118e-03+j1.90255905401144342903e-02
  +9.48607277111168656347e-03+j1.90922639059530607764e-02
  +9.97193655338185491743e-03+j1.91321598966467942837e-02
  +1.04927800261505610457e-02+j1.91195737266065812765e-02
  +1.09666246449865445456e-02+j1.90851927122464848363e-02
  +1.14280942995760581571e-02+j1.90406574345506063306e-02
  +1.18490245860039256076e-02+j1.90090602139094955181e-02
  +1.22967691387849686890e-02+j1.89849680884865701369e-02
  +1.27664884269771405911e-02+j1.89266431978970806060e-02
  +1.32655256011051658760e-02+j1.88695192040057579952e-02
  +1.37514015075360651608e-02+j1.88004784935083268937e-02
</dep>
<dep S[4,3] frequency>
  -1.39261505861510925808e-01-j9.37424726026873322837e-01
  -1.49475381894373704483e-01-j9.35683814339132502447e-01
  -1.59587048067826836606e-01-j9.33784920205003587945e-01
  -1.69633333521034046498e-01-j9.31854008983897696972e-01
  -1.79786470449632584945e-01-j9.29793254295615545502e-01
  -1.89923552885331636819e-01-j9.27646405939492213477e-01
  -2.00058556923639330183e-01-j9.25450645439181540652e-01
  -2.10202935722159950371e-01-j9.23086131850701985258e-01
  -2.20319345988968379180e-01-j9.20543381601426791150e-01
  -2.30336693462247305009e-01-j9.17856275357934792147e-01
  -2.40358335494477992622e-01-j9.15179323202477301713e-01
  -2.50377380602622379158e-01-j9.12397670914531833120e-01
  -2.60315358206932301322e-01-j9.09522822701956501490e-01
  -2.70166089871455183946e-01-j9.06564995009160878858e-01
  -2.79964448297696011370e-01-j9.03487369880235258179e-01
  -2.89715184700411076957e-01-j9.00362736652688067096e-01
  -2.99518626127699194583e-01-j8.97104364908753559860e-01
  -3.09326851032811156461e-01-j8.93699095139693255874e-01
  -3.18978007864144486039e-01-j8.90053510997488528389e-01
</dep>
<dep S[4,4] frequency>
  +7.90372199826369359332e-02-j1.92062955504902488357e-02
  +7.92984010801002919822e-02-j2.05507571141424483230e-02
  +7.96026654270778760702e-02-j2.19471531438483191678e-02
  +7.98864550154622238276e-02-j2.34684727375477908407e-02
  +8.00124950752483243832e-02-j2.49974396419189448526e-02
  +8.01998212370817753492e-02-j2.64266423130451733048e-02
  +8.04845366936205453001e-02-j2.77360381367699748711e-02
  +8.07453559031386658429e-02-j2.91307823434268919893e-02
  +8.10411326575771195913e-02-j3.04433789754689210216e-02
  +8.11911033822197980570e-02-j3.17552652148200831306e-02
  +8.14261223619164586918e-02-j3.29965660220569445560e-02
  +8.15765337003671597849e-02-j3.43275463645710821048e-02
  +8.17173994234653144897e-02-j3.56220987794308163732e-02
  +8.17860622185217212010e-02-j3.69091414767095393756e-02
  +8.17763418700991895349e-02-j3.80787432725878949302e-02
  +8.17354257607312839617e-02-j3.92963334269806063848e-02
  +8.15557949224954836787e-02-j4.04280392594888460245e-02
  +8.14035752287566305441e-02-j4.15030884223198948124e-02
  +8.11862708558252210711e-02-j4.25197942118559768510e-02
</dep>
<dep S[4,2] frequency>
  +1.08535187572288138735e-02+j1.62071748361230505431e-02
  +1.12107426120660741420e-02+j1.62362615819282296581e-02
  +1.16302201841236990676e-02+j1.62653427302272002297e-02
  +1.20946597681133721780e-02+j1.62870622264847386695e-02
  +1.25651724461693370394e-02+j1.62343120854594180624e-02
  +1.29550915074254369141e-02+j1.61728391589986975063e-02
  +1.33380058831824299670e-02+j1.61510663967408540920e-02
  +1.37158616114386733287e-02+j1.61053647788393650142e-02
  +1.41117420485042388556e-02+j1.60658634809354161632e-02
  +1.45316926241834398770e-02+j1.60044026818610685137e-02
  +1.49439243001141808254e-02+j1.59061482030694034684e-02
  +1.53602194421641191635e-02+j1.57839257096170360040e-02
  +1.57568601832074606239e-02+j1.56609064648789431118e-02
  +1.61178550087852923145e-02+j1.55387504349903948775e-02
  +1.64893133512072354030e-02+j1.54462322537702867464e-02
  +1.69055343048656325777e-02+j1.53057264090612210605e-02
  +1.73042642270237467805e-02+j1.50970273918708819405e-02
  +1.76373260136998555314e-02+j1.48908837975600116810e-02
  +1.79683448899672360000e-02+j1.46766279099252994200e-02
</dep>
<dep S[4,1] frequency>
  +2.12695386733643992949e-01-j2.65580123211674734574e-02
  +2.12699164917551919451e-01-j2.88455684045083871059e-02
  +2.12640204528279891383e-01-j3.11308867108904818721e-02
  +2.12536649213350303800e-01-j3.34010577571659805773e-02
  +2.12406086117247455691e-01-j3.56600795347672694380e-02
  +2.12258716296623933806e-01-j3.79434457001273650611e-02
  +2.12072985898584975839e-01-j4.02182577046266698240e-02
  +2.11825087693819025247e-01-j4.24919956990551794807e-02
  +2.11540778001813645215e-01-j4.47635660733518292442e-02
  +2.11225892269445464366e-01-j4.70145789349820097947e-02
  +2.10855949146064675093e-01-j4.92525497038598103483e-02
  +2.10493765062111509723e-01-j5.14885910535565205493e-02
  +2.10070443975389237190e-01-j5.37450792681852529409e-02
  +2.09608401300886121321e-01-j5.59965755970094070104e-02
  +2.09100977933270981701e-01-j5.82333963903097495685e-02
  +2.08554726986429239677e-01-j6.04353010075231733556e-02
  +2.08011426920050562783e-01-j6.26194595198383829882e-02
  +2.07435002935557860626e-01-j6.48125955887098037511e-02
  +2.06806398902640659054e-01-j6.70151872091280798038e-02
</dep>
<dep S[2,3] frequency>
  +2.12632325356916507264e-01-j2.73963715644320870979e-02
  +2.12634150942840272069e-01-j2.96852620926369159537e-02
  +2.12579397059897923228e-01-j3.19592574147341546009e-02
  +2.12466587643661913853e-01-j3.42264976382125607479e-02
  +2.12334579645974186324e-01-j3.65242116786321235899e-02
  +2.12149083701217766595e-01-j3.88151327978326909918e-02
  +2.11937335327452902600e-01-j4.10962562093122596441e-02
  +2.11673411585579507310e-01-j4.33901138256128082737e-02
  +2.11369481806644637922e-01-j4.56733244911858293769e-02
  +2.11021056241219945315e-01-j4.79424591235469987893e-02
  +2.10647875752796004400e-01-j5.02185370646451578747e-02
  +2.10238218226097589580e-01-j5.24791759881594321868e-02
  +2.09808621924279153914e-01-j5.47193932362789459134e-02
  +2.09325554307604411175e-01-j5.69514249005897976730e-02
  +2.08798243030383107177e-01-j5.91777701789172327906e-02
  +2.08240168638134104384e-01-j6.13940983312877830436e-02
  +2.07620066019197857532e-01-j6.36176448921825510308e-02
  +2.06966619848125421566e-01-j6.58274989421090417352e-02
  +2.06246298179005693729e-01-j6.80032444352592635450e-02
</dep>
<dep S[2,4] frequency>
  +1.08462373029169084626e-02+j1.62121297232439842695e-02
  +1.12073945080312792344e-02+j1.62509514755380946038e-02
  +1.16245584111721034226e-02+j1.62758182626183967034e-02
  +1.20884946331837606071e-02+j1.63005892201237845285e-02
  +1.25573854876887824883e-02+j1.62409796804075801102e-02
  +1.29504206247660069717e-02+j1.61842460654828268485e-02
  +1.33296414412345382017e-02+j1.61610193671786750436e-02
  +1.37056536673047790753e-02+j1.61279842576468879223e-02
  +1.41080298609144172417e-02+j1.60780827756197564060e-02
  +1.45293050708873161536e-02+j1.60108725923774897204e-02
  +1.49448095187290908026e-02+j1.59165830795122975605e-02
  +1.53608952376238228066e-02+j1.57924388809779769893e-02
  +1.57512563866944454993e-02+j1.56604102351193541498e-02
  +1.61136677229564984071e-02+j1.55449950249595680862e-02
  +1.64785958681206434751e-02+j1.54602908463418176055e-02
  +1.68974252064057473000e-02+j1.53229050555572510195e-02
  +1.72927464029643818133e-02+j1.51099185878966202345e-02
  +1.76424301294975383048e-02+j1.48935662454378336950e-02
  +1.79704200143324388517e-02+j1.46780143750506186784e-02
</dep>
<dep S[2,2] frequency>
  +6.89360273180300853202e-02-j2.38900110516944985672e-02
  +6.95768962036349691846e-02-j2.43211152195373925267e-02
  +7.00679592271997442321e-02-j2.49770570064604402472e-02
  +7.04948619625683781109e-02-j2.58173629793181647063e-02
  +7.07924617469569000816e-02-j2.68514955353965356633e-02
  +7.11049420604970283666e-02-j2.78313717684984807121e-02
  +7.16674869511643303222e-02-j2.89040366610031906891e-02
  +7.23596004416841992457e-02-j2.98452350605145910745e-02
  +7.32356718096411757335e-02-j3.06882999773034625957e-02
  +7.42330448190155617327e-02-j3.14174390049541951697e-02
  +7.49668440100769439827e-02-j3.20695281355191375017e-02
  +7.54485498770212648090e-02-j3.24500698232419171330e-02
  +7.56784488470979010977e-02-j3.27905916945696873643e-02
  +7.57595598800435976461e-02-j3.29999438771960695860e-02
  +7.59724266973244577450e-02-j3.35206665923868107893e-02
  +7.60133404714646299105e-02-j3.43787279692051028768e-02
  +7.59895659166217318781e-02-j3.54400487348605075510e-02
  +7.59812239443824199991e-02-j3.64907354620246648924e-02
  +7.61232617676246836602e-02-j3.74179536783349198092e-02
</dep>
<dep S[2,1] frequency>
  -1.01200812762997804928e-01-j9.42889989854405086156e-01
  -1.11238991368821815708e-01-j9.41697312909938633041e-01
  -1.21306467493788081025e-01-j9.40222935155531125417e-01
  -1.31356630080139785699e-01-j9.38553126353114386404e-01
  -1.41301973423376553418e-01-j9.36894005093721005117e-01
  -1.51232984508601425722e-01-j9.35119879038766588231e-01
  -1.61182683183937025539e-01-j9.33324525893609480143e-01
  -1.71137933904158601184e-01-j9.31300788129921564007e-01
  -1.81077384119535333973e-01-j9.29228122139232781684e-01
  -1.90922988212807898112e-01-j9.27056287753551311326e-01
  -2.00708372536422818833e-01-j9.24708570632986059934e-01
  -2.10450094815214650001e-01-j9.22419641666748613140e-01
  -2.20248604237249706594e-01-j9.19980626943414536711e-01
  -2.30071408200360649765e-01-j9.17463901207841381336e-01
  -2.39864796935791324550e-01-j9.14754004316274516029e-01
  -2.49623605537470816262e-01-j9.11967958633623343445e-01
  -2.59233988236124979210e-01-j9.09091738417356909352e-01
  -2.68845407344341313927e-01-j9.06164475614188003050e-01
  -2.78537532550326649705e-01-j9.03100429377106883599e-01
</dep>
<dep S[1,3] frequency>
  +5.84209240866885581855e-03+j1.80616170022090127834e-02
  +6.24700701268601776839e-03+j1.81767943088175787381e-02
  +6.62414246346182400416e-03+j1.83294574975411406204e-02
  +7.00973048461112080432e-03+j1.84865450267275022167e-02
  +7.38551866936371093075e-03+j1.86262738406786920731e-02
  +7.75099420940432437543e-03+j1.87894375022419624077e-02
  +8.13197301992213406052e-03+j1.89399867879859462594e-02
  +8.59086531843769596328e-03+j1.90282041473560648015e-02
  +9.06763242771815858312e-03+j1.91157856497238265447e-02
  +9.56509370221619859009e-03+j1.91879309836110178988e-02
  +1.00444328949544914309e-02+j1.92124244262291410390e-02
  +1.05608598596801384062e-02+j1.91982005882015971387e-02
  +1.10307089527049706490e-02+j1.91710799593334535462e-02
  +1.14880613692898425615e-02+j1.91378915802551674563e-02
  +1.19049723579347788149e-02+j1.91013508952724009315e-02
  +1.23538739045029322128e-02+j1.90927143266385046516e-02
  +1.28362223645132333960e-02+j1.90387744170398831578e-02
  +1.33472306430147957812e-02+j1.89815444508161235149e-02
  +1.38508075109353978593e-02+j1.88908784630563986173e-02
</dep>
<dep S[1,4] frequency>
  +2.12883563814272758208e-01-j2.66489581153240007172e-02
  +2.12897595099630132509e-01-j2.89342896246388703307e-02
  +2.12834634690772295240e-01-j3.12023277940202681258e-02
  +2.12736710165935594130e-01-j3.34922342055210819911e-02
  +2.12613913402511456319e-01-j3.57773207557779138188e-02
  +2.12450732107295675588e-01-j3.80765851553190870504e-02
  +2.12219512526624215498e-01-j4.03696722121178741549e-02
  +2.11976770063399377886e-01-j4.26650959156215925372e-02
  +2.11701749738260752709e-01-j4.49297931099878478101e-02
  +2.11387013023984965399e-01-j4.72036480798976587625e-02
  +2.11046151907887752364e-01-j4.94520529019807919546e-02
  +2.10659662509281725429e-01-j5.16920990078540976143e-02
  +2.10227351575344639789e-01-j5.39232902583331175084e-02
  +2.09764323595078155948e-01-j5.61586284101540378355e-02
  +2.09252870308437394220e-01-j5.83978540111448896077e-02
  +2.08704332143949400358e-01-j6.06083907954494960357e-02
  +2.08142066994573715633e-01-j6.28065150836080721142e-02
  +2.07534938322858464321e-01-j6.50162178804452872694e-02
  +2.06906067418474642894e-01-j6.72199117167404380790e-02
</dep>
<dep S[1,2] frequency>
  -1.01847139002507303118e-01-j9.43142002846797611326e-01
  -1.11882297581200232384e-01-j9.41788822139305037418e-01
  -1.21963603686750285404e-01-j9.40357172491363080269e-01
  -1.31972221528564942483e-01-j9.38802619801474280692e-01
  -1.42057436300098510751e-01-j9.37117892107451111450e-01
  -1.52086114964716856424e-01-j9.35363366108084903772e-01
  -1.62079209151353376139e-01-j9.33425679600302315997e-01
  -1.72053512883688475288e-01-j9.31464674979020634815e-01
